Freq,Re(Vin),Im(Vin),Re(Vout),Im(Vout),Re(Iin),Im(Iin),Re(Iout),Im(Iout),Re(Pin),Im(Pin),Re(Zout),Im(Zout),Re(Pout),Im(Pout),Re(Zin),Im(Zin),Re(Av),Im(Av),Re(Ai),Im(Ai)
Hz,V,V,V,V,A,A,A,A,W,W,Ohms,Ohms,W,W,Ohms,Ohms,,,,
1.000e+01,1.250e+00,3.122e-06,-1.250e+00,-3.122e-06,2.500e-02,6.244e-08,2.500e-02,3.122e-07,3.125e-02,1.561e-07,1.500e+02,-4.496e-03,-3.125e-02,-4.683e-07,1.500e+02,-4.995e-04,-1.000e+00,4.066e-21,1.000e+00,9.990e-06
2.041e+05,1.260e+00,6.226e-02,-1.260e+00,-6.226e-02,2.519e-02,1.245e-03,2.494e-02,6.381e-03,3.165e-02,3.137e-03,1.092e+02,-6.677e+01,-3.101e-02,-9.590e-03,1.480e+02,-9.788e+00,-1.000e+00,0.000e+00,1.000e+00,2.039e-01
4.082e+05,1.286e+00,1.165e-01,-1.286e+00,-1.165e-01,2.571e-02,2.331e-03,2.476e-02,1.282e-02,3.279e-02,5.993e-03,6.008e+01,-7.350e+01,-3.034e-02,-1.936e-02,1.429e+02,-1.748e+01,-1.000e+00,3.105e-16,1.000e+00,4.078e-01
6.123e+05,1.322e+00,1.579e-01,-1.322e+00,-1.579e-01,2.645e-02,3.158e-03,2.452e-02,1.934e-02,3.448e-02,8.353e-03,3.435e+01,-6.303e+01,-2.937e-02,-2.944e-02,1.364e+02,-2.226e+01,-1.000e+00,2.069e-17,1.000e+00,6.117e-01
8.163e+05,1.363e+00,1.855e-01,-1.363e+00,-1.855e-01,2.727e-02,3.709e-03,2.424e-02,2.595e-02,3.649e-02,1.012e-02,2.147e+01,-5.253e+01,-2.824e-02,-3.988e-02,1.300e+02,-2.449e+01,-1.000e+00,-1.199e-16,1.000e+00,8.155e-01
1.020e+06,1.404e+00,2.010e-01,-1.404e+00,-2.010e-01,2.807e-02,4.021e-03,2.398e-02,3.264e-02,3.860e-02,1.129e-02,1.449e+01,-4.431e+01,-2.709e-02,-5.064e-02,1.245e+02,-2.500e+01,-1.000e+00,-5.231e-16,1.000e+00,1.019e+00
1.224e+06,1.440e+00,2.076e-01,-1.440e+00,-2.076e-01,2.881e-02,4.151e-03,2.373e-02,3.939e-02,4.064e-02,1.196e-02,1.037e+01,-3.805e+01,-2.601e-02,-6.167e-02,1.200e+02,-2.450e+01,-1.000e+00,-1.699e-16,1.000e+00,1.223e+00
1.429e+06,1.472e+00,2.079e-01,-1.472e+00,-2.079e-01,2.945e-02,4.157e-03,2.352e-02,4.619e-02,4.250e-02,1.224e-02,7.759e+00,-3.322e+01,-2.503e-02,-7.290e-02,1.165e+02,-2.350e+01,-1.000e+00,1.294e-16,1.000e+00,1.427e+00
1.633e+06,1.500e+00,2.042e-01,-1.500e+00,-2.042e-01,3.000e-02,4.083e-03,2.333e-02,5.301e-02,4.415e-02,1.225e-02,6.014e+00,-2.943e+01,-2.417e-02,-8.426e-02,1.137e+02,-2.228e+01,-1.000e+00,4.361e-16,1.000e+00,1.631e+00
1.837e+06,1.523e+00,1.981e-01,-1.523e+00,-1.981e-01,3.045e-02,3.963e-03,2.318e-02,5.984e-02,4.559e-02,1.207e-02,4.792e+00,-2.638e+01,-2.344e-02,-9.572e-02,1.114e+02,-2.101e+01,-1.000e+00,-1.792e-16,1.000e+00,1.835e+00
2.041e+06,1.542e+00,1.909e-01,-1.542e+00,-1.909e-01,3.084e-02,3.817e-03,2.305e-02,6.669e-02,4.682e-02,1.177e-02,3.905e+00,-2.389e+01,-2.282e-02,-1.072e-01,1.097e+02,-1.977e+01,-1.000e+00,-5.319e-17,1.000e+00,2.039e+00
2.245e+06,1.558e+00,1.830e-01,-1.558e+00,-1.830e-01,3.116e-02,3.660e-03,2.295e-02,7.354e-02,4.787e-02,1.141e-02,3.242e+00,-2.181e+01,-2.229e-02,-1.188e-01,1.083e+02,-1.860e+01,-1.000e+00,-2.636e-16,1.000e+00,2.243e+00
2.449e+06,1.571e+00,1.751e-01,-1.571e+00,-1.751e-01,3.143e-02,3.502e-03,2.286e-02,8.039e-02,4.876e-02,1.100e-02,2.734e+00,-2.006e+01,-2.184e-02,-1.303e-01,1.072e+02,-1.751e+01,-1.000e+00,-2.268e-16,1.000e+00,2.447e+00
2.653e+06,1.583e+00,1.673e-01,-1.583e+00,-1.673e-01,3.165e-02,3.345e-03,2.278e-02,8.723e-02,4.953e-02,1.059e-02,2.336e+00,-1.857e+01,-2.146e-02,-1.419e-01,1.062e+02,-1.651e+01,-1.000e+00,8.846e-16,1.000e+00,2.650e+00
2.857e+06,1.592e+00,1.598e-01,-1.592e+00,-1.598e-01,3.184e-02,3.195e-03,2.272e-02,9.408e-02,5.018e-02,1.017e-02,2.018e+00,-1.728e+01,-2.114e-02,-1.534e-01,1.055e+02,-1.560e+01,-1.000e+00,-2.416e-16,1.000e+00,2.854e+00
3.061e+06,1.600e+00,1.526e-01,-1.600e+00,-1.526e-01,3.200e-02,3.053e-03,2.267e-02,1.009e-01,5.074e-02,9.770e-03,1.761e+00,-1.616e+01,-2.086e-02,-1.650e-01,1.048e+02,-1.477e+01,-1.000e+00,-1.599e-15,1.000e+00,3.058e+00
3.265e+06,1.607e+00,1.459e-01,-1.607e+00,-1.459e-01,3.214e-02,2.919e-03,2.262e-02,1.078e-01,5.122e-02,9.380e-03,1.550e+00,-1.517e+01,-2.062e-02,-1.765e-01,1.043e+02,-1.401e+01,-1.000e+00,-8.736e-16,1.000e+00,3.262e+00
3.469e+06,1.613e+00,1.396e-01,-1.613e+00,-1.396e-01,3.226e-02,2.792e-03,2.258e-02,1.146e-01,5.164e-02,9.008e-03,1.375e+00,-1.429e+01,-2.042e-02,-1.880e-01,1.038e+02,-1.332e+01,-1.000e+00,-5.466e-16,1.000e+00,3.466e+00
3.673e+06,1.618e+00,1.337e-01,-1.618e+00,-1.337e-01,3.236e-02,2.675e-03,2.255e-02,1.214e-01,5.201e-02,8.655e-03,1.227e+00,-1.351e+01,-2.024e-02,-1.995e-01,1.035e+02,-1.268e+01,-1.000e+00,2.385e-16,1.000e+00,3.670e+00
3.878e+06,1.623e+00,1.282e-01,-1.623e+00,-1.282e-01,3.245e-02,2.564e-03,2.252e-02,1.283e-01,5.232e-02,8.322e-03,1.102e+00,-1.281e+01,-2.009e-02,-2.110e-01,1.031e+02,-1.210e+01,-1.000e+00,-1.224e-15,1.000e+00,3.874e+00
4.082e+06,1.626e+00,1.231e-01,-1.626e+00,-1.231e-01,3.253e-02,2.462e-03,2.249e-02,1.351e-01,5.260e-02,8.007e-03,9.957e-01,-1.218e+01,-1.995e-02,-2.225e-01,1.028e+02,-1.157e+01,-1.000e+00,1.154e-15,1.000e+00,4.078e+00
4.286e+06,1.630e+00,1.183e-01,-1.630e+00,-1.183e-01,3.260e-02,2.366e-03,2.247e-02,1.419e-01,5.285e-02,7.711e-03,9.037e-01,-1.161e+01,-1.983e-02,-2.340e-01,1.026e+02,-1.107e+01,-1.000e+00,-2.050e-15,1.000e+00,4.282e+00
4.490e+06,1.633e+00,1.138e-01,-1.633e+00,-1.138e-01,3.266e-02,2.276e-03,2.245e-02,1.488e-01,5.306e-02,7.433e-03,8.239e-01,-1.109e+01,-1.972e-02,-2.454e-01,1.024e+02,-1.062e+01,-1.000e+00,-8.289e-16,1.000e+00,4.485e+00
4.694e+06,1.636e+00,1.096e-01,-1.636e+00,-1.096e-01,3.271e-02,2.192e-03,2.243e-02,1.556e-01,5.326e-02,7.171e-03,7.541e-01,-1.061e+01,-1.963e-02,-2.569e-01,1.022e+02,-1.020e+01,-1.000e+00,-6.505e-16,1.000e+00,4.689e+00
4.898e+06,1.638e+00,1.057e-01,-1.638e+00,-1.057e-01,3.276e-02,2.114e-03,2.241e-02,1.624e-01,5.343e-02,6.924e-03,6.929e-01,-1.017e+01,-1.955e-02,-2.684e-01,1.020e+02,-9.809e+00,-1.000e+00,1.772e-16,1.000e+00,4.893e+00
5.102e+06,1.640e+00,1.020e-01,-1.640e+00,-1.020e-01,3.280e-02,2.040e-03,2.240e-02,1.692e-01,5.358e-02,6.692e-03,6.388e-01,-9.768e+00,-1.947e-02,-2.798e-01,1.019e+02,-9.446e+00,-1.000e+00,1.686e-16,1.000e+00,5.097e+00
5.306e+06,1.642e+00,9.857e-02,-1.642e+00,-9.857e-02,3.284e-02,1.971e-03,2.239e-02,1.760e-01,5.372e-02,6.473e-03,5.908e-01,-9.395e+00,-1.941e-02,-2.912e-01,1.017e+02,-9.108e+00,-1.000e+00,-7.327e-16,1.000e+00,5.301e+00
5.510e+06,1.644e+00,9.533e-02,-1.644e+00,-9.533e-02,3.287e-02,1.907e-03,2.238e-02,1.829e-01,5.385e-02,6.267e-03,5.480e-01,-9.050e+00,-1.935e-02,-3.027e-01,1.016e+02,-8.793e+00,-1.000e+00,1.767e-15,1.000e+00,5.505e+00
5.714e+06,1.645e+00,9.228e-02,-1.645e+00,-9.228e-02,3.290e-02,1.846e-03,2.237e-02,1.897e-01,5.396e-02,6.073e-03,5.097e-01,-8.729e+00,-1.929e-02,-3.141e-01,1.015e+02,-8.498e+00,-1.000e+00,-3.784e-16,1.000e+00,5.709e+00
5.918e+06,1.647e+00,8.941e-02,-1.647e+00,-8.941e-02,3.293e-02,1.788e-03,2.236e-02,1.965e-01,5.406e-02,5.889e-03,4.752e-01,-8.430e+00,-1.924e-02,-3.255e-01,1.014e+02,-8.221e+00,-1.000e+00,-4.790e-16,1.000e+00,5.913e+00
6.122e+06,1.648e+00,8.671e-02,-1.648e+00,-8.671e-02,3.296e-02,1.734e-03,2.235e-02,2.033e-01,5.415e-02,5.715e-03,4.442e-01,-8.150e+00,-1.920e-02,-3.369e-01,1.013e+02,-7.962e+00,-1.000e+00,-1.033e-15,1.000e+00,6.116e+00
6.327e+06,1.649e+00,8.415e-02,-1.649e+00,-8.415e-02,3.298e-02,1.683e-03,2.234e-02,2.101e-01,5.424e-02,5.551e-03,4.161e-01,-7.889e+00,-1.916e-02,-3.483e-01,1.012e+02,-7.718e+00,-1.000e+00,-2.577e-15,1.000e+00,6.320e+00
6.531e+06,1.650e+00,8.174e-02,-1.650e+00,-8.174e-02,3.300e-02,1.635e-03,2.233e-02,2.169e-01,5.431e-02,5.395e-03,3.905e-01,-7.644e+00,-1.912e-02,-3.598e-01,1.011e+02,-7.488e+00,-1.000e+00,1.326e-15,1.000e+00,6.524e+00
6.735e+06,1.651e+00,7.945e-02,-1.651e+00,-7.945e-02,3.302e-02,1.589e-03,2.233e-02,2.237e-01,5.438e-02,5.247e-03,3.673e-01,-7.413e+00,-1.908e-02,-3.712e-01,1.011e+02,-7.271e+00,-1.000e+00,2.357e-15,1.000e+00,6.728e+00
6.939e+06,1.652e+00,7.728e-02,-1.652e+00,-7.728e-02,3.304e-02,1.546e-03,2.232e-02,2.306e-01,5.445e-02,5.106e-03,3.460e-01,-7.196e+00,-1.905e-02,-3.826e-01,1.010e+02,-7.066e+00,-1.000e+00,-2.347e-15,1.000e+00,6.932e+00
7.143e+06,1.653e+00,7.523e-02,-1.653e+00,-7.523e-02,3.305e-02,1.505e-03,2.232e-02,2.374e-01,5.451e-02,4.973e-03,3.266e-01,-6.992e+00,-1.902e-02,-3.939e-01,1.010e+02,-6.872e+00,-1.000e+00,-3.352e-16,1.000e+00,7.136e+00
7.347e+06,1.653e+00,7.327e-02,-1.653e+00,-7.327e-02,3.307e-02,1.465e-03,2.231e-02,2.442e-01,5.456e-02,4.846e-03,3.087e-01,-6.798e+00,-1.900e-02,-4.053e-01,1.009e+02,-6.688e+00,-1.000e+00,2.027e-15,1.000e+00,7.340e+00
7.551e+06,1.654e+00,7.141e-02,-1.654e+00,-7.141e-02,3.308e-02,1.428e-03,2.231e-02,2.510e-01,5.462e-02,4.725e-03,2.923e-01,-6.615e+00,-1.897e-02,-4.167e-01,1.009e+02,-6.514e+00,-1.000e+00,-1.524e-15,1.000e+00,7.544e+00
7.755e+06,1.655e+00,6.964e-02,-1.655e+00,-6.964e-02,3.309e-02,1.393e-03,2.230e-02,2.578e-01,5.466e-02,4.610e-03,2.772e-01,-6.442e+00,-1.895e-02,-4.281e-01,1.008e+02,-6.348e+00,-1.000e+00,8.037e-16,1.000e+00,7.748e+00
7.959e+06,1.655e+00,6.796e-02,-1.655e+00,-6.796e-02,3.311e-02,1.359e-03,2.230e-02,2.646e-01,5.471e-02,4.500e-03,2.631e-01,-6.277e+00,-1.893e-02,-4.395e-01,1.008e+02,-6.190e+00,-1.000e+00,-1.490e-15,1.000e+00,7.951e+00
8.163e+06,1.656e+00,6.635e-02,-1.656e+00,-6.635e-02,3.312e-02,1.327e-03,2.229e-02,2.714e-01,5.475e-02,4.394e-03,2.502e-01,-6.121e+00,-1.891e-02,-4.509e-01,1.007e+02,-6.040e+00,-1.000e+00,6.694e-17,1.000e+00,8.155e+00
8.367e+06,1.656e+00,6.481e-02,-1.656e+00,-6.481e-02,3.313e-02,1.296e-03,2.229e-02,2.782e-01,5.478e-02,4.294e-03,2.381e-01,-5.972e+00,-1.889e-02,-4.622e-01,1.007e+02,-5.897e+00,-1.000e+00,1.590e-16,1.000e+00,8.359e+00
8.571e+06,1.657e+00,6.334e-02,-1.657e+00,-6.334e-02,3.314e-02,1.267e-03,2.229e-02,2.850e-01,5.482e-02,4.198e-03,2.270e-01,-5.830e+00,-1.887e-02,-4.736e-01,1.007e+02,-5.760e+00,-1.000e+00,-1.648e-15,1.000e+00,8.563e+00
8.776e+06,1.657e+00,6.194e-02,-1.657e+00,-6.194e-02,3.314e-02,1.239e-03,2.229e-02,2.918e-01,5.485e-02,4.106e-03,2.165e-01,-5.695e+00,-1.886e-02,-4.850e-01,1.006e+02,-5.630e+00,-1.000e+00,4.390e-16,1.000e+00,8.767e+00
8.980e+06,1.658e+00,6.059e-02,-1.658e+00,-6.059e-02,3.315e-02,1.212e-03,2.228e-02,2.986e-01,5.488e-02,4.018e-03,2.068e-01,-5.566e+00,-1.884e-02,-4.964e-01,1.006e+02,-5.505e+00,-1.000e+00,1.058e-15,1.000e+00,8.971e+00
9.184e+06,1.658e+00,5.930e-02,-1.658e+00,-5.930e-02,3.316e-02,1.186e-03,2.228e-02,3.054e-01,5.491e-02,3.933e-03,1.977e-01,-5.443e+00,-1.883e-02,-5.077e-01,1.006e+02,-5.386e+00,-1.000e+00,-9.488e-16,1.000e+00,9.175e+00
9.388e+06,1.658e+00,5.806e-02,-1.658e+00,-5.806e-02,3.317e-02,1.161e-03,2.228e-02,3.122e-01,5.494e-02,3.852e-03,1.892e-01,-5.325e+00,-1.882e-02,-5.191e-01,1.006e+02,-5.271e+00,-1.000e+00,5.015e-17,1.000e+00,9.379e+00
9.592e+06,1.659e+00,5.687e-02,-1.659e+00,-5.687e-02,3.318e-02,1.137e-03,2.227e-02,3.190e-01,5.496e-02,3.774e-03,1.813e-01,-5.212e+00,-1.880e-02,-5.305e-01,1.005e+02,-5.162e+00,-1.000e+00,-4.554e-16,1.000e+00,9.582e+00
9.796e+06,1.659e+00,5.573e-02,-1.659e+00,-5.573e-02,3.318e-02,1.115e-03,2.227e-02,3.258e-01,5.499e-02,3.699e-03,1.738e-01,-5.103e+00,-1.879e-02,-5.418e-01,1.005e+02,-5.056e+00,-1.000e+00,-2.152e-15,1.000e+00,9.786e+00
1.000e+07,1.659e+00,5.464e-02,-1.659e+00,-5.464e-02,3.319e-02,1.093e-03,2.227e-02,3.326e-01,5.501e-02,3.626e-03,1.668e-01,-4.999e+00,-1.878e-02,-5.532e-01,1.005e+02,-4.955e+00,-1.000e+00,-3.208e-15,1.000e+00,9.990e+00
