      Freq,    Re(Vin),    Im(Vin),   Re(Vout),   Im(Vout),     Re(Av),     Im(Av),    Re(Iin),    Im(Iin),   Re(Iout),   Im(Iout),     Re(Ai),     Im(Ai),    Re(Zin),    Im(Zin),   Re(Zout),   Im(Zout),    Re(Pin),    Im(Pin),   Re(Pout),   Im(Pout)
        Hz,          V,          V,          V,          V,          L,          L,          A,          A,          A,          A,          L,          L,       Ohms,       Ohms,       Ohms,       Ohms,          W,          W,          W,          W
 1.000e+01,  2.500e+00,  1.112e-05,  2.500e+00, -1.112e-05,  1.000e+00, -8.897e-06,  5.000e-02, -2.224e-07,  5.000e-02, -2.224e-07,  1.000e+00,  0.000e+00,  5.000e+01,  4.448e-04,  5.000e+01,  4.448e-04,  1.250e-01,  1.112e-06,  1.250e-01, -2.118e-22,
 2.041e+05,  2.520e+00,  2.251e-01,  2.480e+00, -2.251e-01,  9.681e-01, -1.758e-01,  4.959e-02, -4.502e-03,  4.959e-02, -4.502e-03,  1.000e+00,  0.000e+00,  5.000e+01,  9.079e+00,  5.000e+01,  9.079e+00,  1.240e-01,  2.251e-02,  1.240e-01,  0.000e+00,
 4.082e+05,  2.580e+00,  4.395e-01,  2.420e+00, -4.395e-01,  8.835e-01, -3.208e-01,  4.840e-02, -8.789e-03,  4.840e-02, -8.789e-03,  1.000e+00,  0.000e+00,  5.000e+01,  1.816e+01,  5.000e+01,  1.816e+01,  1.210e-01,  4.395e-02,  1.210e-01,  3.469e-18,
 6.123e+05,  2.673e+00,  6.339e-01,  2.327e+00, -6.339e-01,  7.712e-01, -4.201e-01,  4.655e-02, -1.268e-02,  4.655e-02, -1.268e-02,  1.000e+00,  0.000e+00,  5.000e+01,  2.724e+01,  5.000e+01,  2.724e+01,  1.164e-01,  6.339e-02,  1.164e-01,  6.939e-18,
 8.163e+05,  2.791e+00,  8.021e-01,  2.209e+00, -8.021e-01,  6.547e-01, -4.755e-01,  4.417e-02, -1.604e-02,  4.417e-02, -1.604e-02,  1.000e+00,  0.000e+00,  5.000e+01,  3.631e+01,  5.000e+01,  3.631e+01,  1.104e-01,  8.021e-02,  1.104e-01,  2.082e-17,
 1.020e+06,  2.927e+00,  9.409e-01,  2.073e+00, -9.409e-01,  5.482e-01, -4.977e-01,  4.146e-02, -1.882e-02,  4.146e-02, -1.882e-02,  1.000e+00,  0.000e+00,  5.000e+01,  4.539e+01,  5.000e+01,  4.539e+01,  1.036e-01,  9.409e-02,  1.036e-01,  0.000e+00,
 1.224e+06,  3.072e+00,  1.050e+00,  1.928e+00, -1.050e+00,  4.573e-01, -4.982e-01,  3.856e-02, -2.100e-02,  3.856e-02, -2.100e-02,  1.000e+00,  0.000e+00,  5.000e+01,  5.447e+01,  5.000e+01,  5.447e+01,  9.640e-02,  1.050e-01,  9.640e-02,  6.939e-18,
 1.429e+06,  3.219e+00,  1.132e+00,  1.781e+00, -1.132e+00,  3.823e-01, -4.860e-01,  3.562e-02, -2.263e-02,  3.562e-02, -2.263e-02,  1.000e+00,  0.000e+00,  5.000e+01,  6.355e+01,  5.000e+01,  6.355e+01,  8.904e-02,  1.132e-01,  8.904e-02,  0.000e+00,
 1.633e+06,  3.363e+00,  1.189e+00,  1.637e+00, -1.189e+00,  3.215e-01, -4.671e-01,  3.273e-02, -2.377e-02,  3.273e-02, -2.377e-02,  1.000e+00, -6.939e-17,  5.000e+01,  7.263e+01,  5.000e+01,  7.263e+01,  8.183e-02,  1.189e-01,  8.183e-02,  1.388e-17,
 1.837e+06,  3.501e+00,  1.225e+00,  1.499e+00, -1.225e+00,  2.724e-01, -4.452e-01,  2.998e-02, -2.450e-02,  2.998e-02, -2.450e-02,  1.000e+00,  0.000e+00,  5.000e+01,  8.171e+01,  5.000e+01,  8.171e+01,  7.496e-02,  1.225e-01,  7.496e-02,  6.939e-18,
 2.041e+06,  3.630e+00,  1.244e+00,  1.370e+00, -1.244e+00,  2.327e-01, -4.226e-01,  2.741e-02, -2.488e-02,  2.741e-02, -2.488e-02,  1.000e+00,  0.000e+00,  5.000e+01,  9.079e+01,  5.000e+01,  9.079e+01,  6.852e-02,  1.244e-01,  6.852e-02, -6.939e-18,
 2.245e+06,  3.748e+00,  1.250e+00,  1.252e+00, -1.250e+00,  2.004e-01, -4.003e-01,  2.503e-02, -2.500e-02,  2.503e-02, -2.500e-02,  1.000e+00,  0.000e+00,  5.000e+01,  9.986e+01,  5.000e+01,  9.986e+01,  6.258e-02,  1.250e-01,  6.258e-02,  0.000e+00,
 2.449e+06,  3.857e+00,  1.245e+00,  1.143e+00, -1.245e+00,  1.740e-01, -3.791e-01,  2.286e-02, -2.491e-02,  2.286e-02, -2.491e-02,  1.000e+00, -0.000e+00,  5.000e+01,  1.089e+02,  5.000e+01,  1.089e+02,  5.716e-02,  1.245e-01,  5.716e-02, -3.469e-18,
 2.653e+06,  3.955e+00,  1.233e+00,  1.045e+00, -1.233e+00,  1.522e-01, -3.592e-01,  2.090e-02, -2.466e-02,  2.090e-02, -2.466e-02,  1.000e+00, -0.000e+00,  5.000e+01,  1.180e+02,  5.000e+01,  1.180e+02,  5.224e-02,  1.233e-01,  5.224e-02,  1.041e-17,
 2.857e+06,  4.044e+00,  1.215e+00,  9.559e-01, -1.215e+00,  1.340e-01, -3.407e-01,  1.912e-02, -2.430e-02,  1.912e-02, -2.430e-02,  1.000e+00, -0.000e+00,  5.000e+01,  1.271e+02,  5.000e+01,  1.271e+02,  4.779e-02,  1.215e-01,  4.779e-02,  1.388e-17,
 3.061e+06,  4.124e+00,  1.193e+00,  8.758e-01, -1.193e+00,  1.188e-01, -3.235e-01,  1.752e-02, -2.385e-02,  1.752e-02, -2.385e-02,  1.000e+00, -0.000e+00,  5.000e+01,  1.362e+02,  5.000e+01,  1.362e+02,  4.379e-02,  1.193e-01,  4.379e-02, -1.388e-17,
 3.265e+06,  4.196e+00,  1.168e+00,  8.039e-01, -1.168e+00,  1.059e-01, -3.078e-01,  1.608e-02, -2.335e-02,  1.608e-02, -2.335e-02,  1.000e+00, -0.000e+00,  5.000e+01,  1.453e+02,  5.000e+01,  1.453e+02,  4.019e-02,  1.168e-01,  4.019e-02,  1.041e-17,
 3.469e+06,  4.261e+00,  1.141e+00,  7.392e-01, -1.141e+00,  9.499e-02, -2.932e-01,  1.478e-02, -2.282e-02,  1.478e-02, -2.282e-02,  1.000e+00, -0.000e+00,  5.000e+01,  1.543e+02,  5.000e+01,  1.543e+02,  3.696e-02,  1.141e-01,  3.696e-02,  3.469e-18,
 3.673e+06,  4.319e+00,  1.113e+00,  6.811e-01, -1.113e+00,  8.560e-02, -2.798e-01,  1.362e-02, -2.226e-02,  1.362e-02, -2.226e-02,  1.000e+00, -0.000e+00,  5.000e+01,  1.634e+02,  5.000e+01,  1.634e+02,  3.406e-02,  1.113e-01,  3.406e-02, -3.469e-18,
 3.878e+06,  4.371e+00,  1.085e+00,  6.289e-01, -1.085e+00,  7.751e-02, -2.674e-01,  1.258e-02, -2.170e-02,  1.258e-02, -2.170e-02,  1.000e+00, -0.000e+00,  5.000e+01,  1.725e+02,  5.000e+01,  1.725e+02,  3.144e-02,  1.085e-01,  3.144e-02,  3.469e-18,
 4.082e+06,  4.418e+00,  1.056e+00,  5.818e-01, -1.056e+00,  7.049e-02, -2.560e-01,  1.164e-02, -2.113e-02,  1.164e-02, -2.113e-02,  1.000e+00,  6.300e-17,  5.000e+01,  1.816e+02,  5.000e+01,  1.816e+02,  2.909e-02,  1.056e-01,  2.909e-02,  6.939e-18,
 4.286e+06,  4.461e+00,  1.028e+00,  5.394e-01, -1.028e+00,  6.435e-02, -2.454e-01,  1.079e-02, -2.057e-02,  1.079e-02, -2.057e-02,  1.000e+00,  6.615e-17,  5.000e+01,  1.907e+02,  5.000e+01,  1.907e+02,  2.697e-02,  1.028e-01,  2.697e-02, -1.735e-18,
 4.490e+06,  4.499e+00,  1.001e+00,  5.011e-01, -1.001e+00,  5.897e-02, -2.356e-01,  1.002e-02, -2.002e-02,  1.002e-02, -2.002e-02,  1.000e+00, -0.000e+00,  5.000e+01,  1.997e+02,  5.000e+01,  1.997e+02,  2.505e-02,  1.001e-01,  2.505e-02, -1.735e-18,
 4.694e+06,  4.534e+00,  9.739e-01,  4.664e-01, -9.739e-01,  5.423e-02, -2.265e-01,  9.328e-03, -1.948e-02,  9.328e-03, -1.948e-02,  1.000e+00, -0.000e+00,  5.000e+01,  2.088e+02,  5.000e+01,  2.088e+02,  2.332e-02,  9.739e-02,  2.332e-02, -5.204e-18,
 4.898e+06,  4.565e+00,  9.478e-01,  4.350e-01, -9.478e-01,  5.003e-02, -2.180e-01,  8.700e-03, -1.896e-02,  8.700e-03, -1.896e-02,  1.000e+00, -0.000e+00,  5.000e+01,  2.179e+02,  5.000e+01,  2.179e+02,  2.175e-02,  9.478e-02,  2.175e-02, -5.204e-18,
 5.102e+06,  4.594e+00,  9.224e-01,  4.064e-01, -9.224e-01,  4.629e-02, -2.101e-01,  8.128e-03, -1.845e-02,  8.128e-03, -1.845e-02,  1.000e+00, -0.000e+00,  5.000e+01,  2.270e+02,  5.000e+01,  2.270e+02,  2.032e-02,  9.224e-02,  2.032e-02,  6.939e-18,
 5.306e+06,  4.620e+00,  8.980e-01,  3.804e-01, -8.980e-01,  4.294e-02, -2.027e-01,  7.608e-03, -1.796e-02,  7.608e-03, -1.796e-02,  1.000e+00, -0.000e+00,  5.000e+01,  2.360e+02,  5.000e+01,  2.360e+02,  1.902e-02,  8.980e-02,  1.902e-02, -2.082e-17,
 5.510e+06,  4.643e+00,  8.744e-01,  3.567e-01, -8.744e-01,  3.995e-02, -1.958e-01,  7.134e-03, -1.749e-02,  7.134e-03, -1.749e-02,  1.000e+00, -0.000e+00,  5.000e+01,  2.451e+02,  5.000e+01,  2.451e+02,  1.784e-02,  8.744e-02,  1.784e-02,  4.337e-18,
 5.714e+06,  4.665e+00,  8.517e-01,  3.350e-01, -8.517e-01,  3.725e-02, -1.894e-01,  6.701e-03, -1.703e-02,  6.701e-03, -1.703e-02,  1.000e+00, -0.000e+00,  5.000e+01,  2.542e+02,  5.000e+01,  2.542e+02,  1.675e-02,  8.517e-02,  1.675e-02,  8.674e-19,
 5.918e+06,  4.685e+00,  8.298e-01,  3.152e-01, -8.298e-01,  3.481e-02, -1.833e-01,  6.304e-03, -1.660e-02,  6.304e-03, -1.660e-02,  1.000e+00, -0.000e+00,  5.000e+01,  2.633e+02,  5.000e+01,  2.633e+02,  1.576e-02,  8.298e-02,  1.576e-02,  1.735e-18,
 6.122e+06,  4.703e+00,  8.089e-01,  2.970e-01, -8.089e-01,  3.260e-02, -1.776e-01,  5.940e-03, -1.618e-02,  5.940e-03, -1.618e-02,  1.000e+00, -0.000e+00,  5.000e+01,  2.724e+02,  5.000e+01,  2.724e+02,  1.485e-02,  8.089e-02,  1.485e-02,  5.204e-18,
 6.327e+06,  4.720e+00,  7.887e-01,  2.803e-01, -7.887e-01,  3.060e-02, -1.722e-01,  5.605e-03, -1.577e-02,  5.605e-03, -1.577e-02,  1.000e+00, -0.000e+00,  5.000e+01,  2.814e+02,  5.000e+01,  2.814e+02,  1.401e-02,  7.887e-02,  1.401e-02,  8.674e-19,
 6.531e+06,  4.735e+00,  7.694e-01,  2.648e-01, -7.694e-01,  2.877e-02, -1.672e-01,  5.297e-03, -1.539e-02,  5.297e-03, -1.539e-02,  1.000e+00, -0.000e+00,  5.000e+01,  2.905e+02,  5.000e+01,  2.905e+02,  1.324e-02,  7.694e-02,  1.324e-02, -8.674e-18,
 6.735e+06,  4.749e+00,  7.508e-01,  2.506e-01, -7.508e-01,  2.710e-02, -1.624e-01,  5.012e-03, -1.502e-02,  5.012e-03, -1.502e-02,  1.000e+00, -0.000e+00,  5.000e+01,  2.996e+02,  5.000e+01,  2.996e+02,  1.253e-02,  7.508e-02,  1.253e-02,  7.806e-18,
 6.939e+06,  4.763e+00,  7.330e-01,  2.375e-01, -7.330e-01,  2.557e-02, -1.578e-01,  4.749e-03, -1.466e-02,  4.749e-03, -1.466e-02,  1.000e+00, -0.000e+00,  5.000e+01,  3.087e+02,  5.000e+01,  3.087e+02,  1.187e-02,  7.330e-02,  1.187e-02, -4.337e-18,
 7.143e+06,  4.775e+00,  7.159e-01,  2.253e-01, -7.159e-01,  2.416e-02, -1.536e-01,  4.506e-03, -1.432e-02,  4.506e-03, -1.432e-02,  1.000e+00, -0.000e+00,  5.000e+01,  3.177e+02,  5.000e+01,  3.177e+02,  1.126e-02,  7.159e-02,  1.126e-02, -1.735e-18,
 7.347e+06,  4.786e+00,  6.994e-01,  2.140e-01, -6.994e-01,  2.287e-02, -1.495e-01,  4.280e-03, -1.399e-02,  4.280e-03, -1.399e-02,  1.000e+00, -0.000e+00,  5.000e+01,  3.268e+02,  5.000e+01,  3.268e+02,  1.070e-02,  6.994e-02,  1.070e-02,  3.469e-18,
 7.551e+06,  4.796e+00,  6.837e-01,  2.035e-01, -6.837e-01,  2.168e-02, -1.456e-01,  4.071e-03, -1.367e-02,  4.071e-03, -1.367e-02,  1.000e+00, -0.000e+00,  5.000e+01,  3.359e+02,  5.000e+01,  3.359e+02,  1.018e-02,  6.837e-02,  1.018e-02,  1.995e-17,
 7.755e+06,  4.806e+00,  6.685e-01,  1.938e-01, -6.685e-01,  2.057e-02, -1.420e-01,  3.876e-03, -1.337e-02,  3.876e-03, -1.337e-02,  1.000e+00,  2.992e-17,  5.000e+01,  3.450e+02,  5.000e+01,  3.450e+02,  9.689e-03,  6.685e-02,  9.689e-03, -1.301e-18,
 7.959e+06,  4.815e+00,  6.539e-01,  1.847e-01, -6.539e-01,  1.955e-02, -1.385e-01,  3.694e-03, -1.308e-02,  3.694e-03, -1.308e-02,  1.000e+00, -3.071e-17,  5.000e+01,  3.541e+02,  5.000e+01,  3.541e+02,  9.235e-03,  6.539e-02,  9.235e-03,  3.469e-18,
 8.163e+06,  4.824e+00,  6.399e-01,  1.762e-01, -6.399e-01,  1.860e-02, -1.351e-01,  3.524e-03, -1.280e-02,  3.524e-03, -1.280e-02,  1.000e+00, -0.000e+00,  5.000e+01,  3.631e+02,  5.000e+01,  3.631e+02,  8.811e-03,  6.399e-02,  8.811e-03, -6.939e-18,
 8.367e+06,  4.832e+00,  6.264e-01,  1.683e-01, -6.264e-01,  1.772e-02, -1.319e-01,  3.366e-03, -1.253e-02,  3.366e-03, -1.253e-02,  1.000e+00,  3.229e-17,  5.000e+01,  3.722e+02,  5.000e+01,  3.722e+02,  8.415e-03,  6.264e-02,  8.415e-03, -6.072e-18,
 8.571e+06,  4.839e+00,  6.135e-01,  1.609e-01, -6.135e-01,  1.690e-02, -1.289e-01,  3.218e-03, -1.227e-02,  3.218e-03, -1.227e-02,  1.000e+00, -0.000e+00,  5.000e+01,  3.813e+02,  5.000e+01,  3.813e+02,  8.044e-03,  6.135e-02,  8.044e-03,  1.128e-17,
 8.776e+06,  4.846e+00,  6.010e-01,  1.539e-01, -6.010e-01,  1.614e-02, -1.260e-01,  3.079e-03, -1.202e-02,  3.079e-03, -1.202e-02,  1.000e+00, -3.386e-17,  5.000e+01,  3.904e+02,  5.000e+01,  3.904e+02,  7.697e-03,  6.010e-02,  7.697e-03, -8.674e-19,
 8.980e+06,  4.853e+00,  5.889e-01,  1.474e-01, -5.889e-01,  1.543e-02, -1.232e-01,  2.949e-03, -1.178e-02,  2.949e-03, -1.178e-02,  1.000e+00, -3.465e-17,  5.000e+01,  3.995e+02,  5.000e+01,  3.995e+02,  7.372e-03,  5.889e-02,  7.372e-03, -3.253e-18,
 9.184e+06,  4.859e+00,  5.773e-01,  1.413e-01, -5.773e-01,  1.476e-02, -1.206e-01,  2.826e-03, -1.155e-02,  2.826e-03, -1.155e-02,  1.000e+00, -0.000e+00,  5.000e+01,  4.085e+02,  5.000e+01,  4.085e+02,  7.066e-03,  5.773e-02,  7.066e-03, -2.168e-18,
 9.388e+06,  4.864e+00,  5.662e-01,  1.356e-01, -5.662e-01,  1.413e-02, -1.180e-01,  2.711e-03, -1.132e-02,  2.711e-03, -1.132e-02,  1.000e+00, -0.000e+00,  5.000e+01,  4.176e+02,  5.000e+01,  4.176e+02,  6.779e-03,  5.662e-02,  6.779e-03,  1.518e-18,
 9.592e+06,  4.870e+00,  5.554e-01,  1.302e-01, -5.554e-01,  1.355e-02, -1.156e-01,  2.603e-03, -1.111e-02,  2.603e-03, -1.111e-02,  1.000e+00, -0.000e+00,  5.000e+01,  4.267e+02,  5.000e+01,  4.267e+02,  6.508e-03,  5.554e-02,  6.508e-03,  5.855e-18,
 9.796e+06,  4.875e+00,  5.450e-01,  1.251e-01, -5.450e-01,  1.299e-02, -1.132e-01,  2.501e-03, -1.090e-02,  2.501e-03, -1.090e-02,  1.000e+00, -0.000e+00,  5.000e+01,  4.358e+02,  5.000e+01,  4.358e+02,  6.253e-03,  5.450e-02,  6.253e-03,  5.421e-18,
 1.000e+07,  4.880e+00,  5.350e-01,  1.203e-01, -5.350e-01,  1.248e-02, -1.110e-01,  2.405e-03, -1.070e-02,  2.405e-03, -1.070e-02,  1.000e+00, -0.000e+00,  5.000e+01,  4.448e+02,  5.000e+01,  4.448e+02,  6.013e-03,  5.350e-02,  6.013e-03, -5.638e-18,
