Freq,Re(Av),Im(Av),Re(Ai),Im(Ai),Re(Pin),Im(Pin),Re(Pout),Im(Pout),Re(Zin),Im(Zin),Re(Zout),Im(Zout),Re(Vin),Im(Vin),Re(Vout),Im(Vout),Re(Iin),Im(Iin),Re(Iout),Im(Iout)
Hz,,,,,W,W,W,W,Ohms,Ohms,Ohms,Ohms,V,V,V,V,A,A,A,A
1.000e+01,1.000e+00,-5.026e-02,1.000e+00,-1.257e-03,1.248e-01,-6.118e-03,1.244e-01,-1.255e-02,5.000e+01,2.450e+00,5.000e+01,2.450e+00,2.498e+00,-6.122e-02,2.495e+00,-1.868e-01,4.997e-02,-1.224e-03,4.997e-02,-1.287e-03
6.721e+03,5.834e-01,5.112e+00,5.942e-01,1.278e-01,-3.970e-03,4.739e-03,-1.353e-02,-1.381e-02,1.402e+02,-4.074e+02,1.354e+02,-4.011e+02,2.352e-01,5.038e-01,-2.438e+00,1.496e+00,4.703e-03,1.008e-02,1.507e-03,6.588e-03
1.343e+04,-3.267e-01,6.005e+00,-3.013e-01,1.501e-01,-8.180e-04,-1.477e-03,-2.088e-03,2.706e-03,3.868e+02,7.414e+02,4.412e+02,7.767e+02,1.475e-01,-2.503e-01,1.455e+00,9.675e-01,2.950e-03,-5.006e-03,-1.373e-04,1.951e-03
2.014e+04,-9.604e-01,1.887e+00,-9.485e-01,4.718e-02,5.316e-03,-6.238e-02,-1.101e-01,-6.103e-02,5.407e+01,9.558e+01,5.544e+01,9.672e+01,1.303e+00,-1.197e+00,1.007e+00,3.608e+00,2.606e-02,-2.393e-02,-2.359e-02,2.393e-02
2.686e+04,-7.831e-01,-3.803e+00,-8.152e-01,-9.507e-02,-9.177e-03,1.494e-02,-4.997e-02,-2.500e-02,8.034e+01,-2.330e+02,7.422e+01,-2.246e+02,4.570e-01,8.171e-01,2.750e+00,-2.378e+00,9.140e-03,1.634e-02,-5.898e-03,-1.419e-02
3.357e+04,5.423e-02,-6.327e+00,-1.249e-02,-1.582e-01,2.651e-04,-2.006e-04,-2.513e-04,2.195e-04,1.788e+03,6.171e+02,1.986e+03,-1.739e+02,1.222e-01,-4.103e-02,-2.529e-01,-7.754e-01,2.444e-03,-8.205e-04,-1.603e-04,-3.764e-04
4.028e+04,8.457e-01,-3.596e+00,8.002e-01,-8.991e-02,-1.101e-02,-1.927e-02,-6.079e-02,2.571e-02,6.914e+01,2.053e+02,7.712e+01,2.161e+02,5.287e-01,-9.110e-01,-2.829e+00,-2.672e+00,1.057e-02,-1.822e-02,6.822e-03,-1.553e-02
4.699e+04,9.272e-01,2.111e+00,9.584e-01,5.277e-02,-1.227e-03,5.234e-02,-1.094e-01,3.814e-02,5.797e+01,-1.105e+02,5.427e+01,-1.071e+02,1.131e+00,1.157e+00,-1.395e+00,3.460e+00,2.261e-02,2.315e-02,2.045e-02,2.338e-02
5.370e+04,2.331e-01,6.072e+00,3.356e-01,1.518e-01,-2.300e-04,9.637e-04,-1.804e-03,-1.290e-03,6.460e+02,-8.816e+02,3.686e+02,-7.380e+02,1.379e-01,1.747e-01,-1.029e+00,8.782e-01,2.758e-03,3.494e-03,3.953e-04,1.591e-03
6.041e+04,-6.548e-01,5.035e+00,-5.592e-01,1.259e-01,-5.267e-03,-5.899e-03,-1.569e-02,1.684e-02,1.125e+02,3.629e+02,1.522e+02,4.159e+02,2.569e-01,-5.739e-01,2.721e+00,1.670e+00,5.139e-03,-1.148e-02,-1.429e-03,7.066e-03
6.712e+04,-9.985e-01,-1.266e-01,-1.001e+00,-3.165e-03,1.232e-01,1.526e-02,1.211e-01,3.125e-02,5.015e+01,-6.180e+00,4.989e+01,-6.165e+00,2.487e+00,1.535e-01,-2.463e+00,-4.680e-01,4.973e-02,3.069e-03,-4.978e-02,-3.230e-03
7.383e+04,-5.166e-01,-5.181e+00,-6.368e-01,-1.295e-01,-2.914e-03,3.819e-03,-1.186e-02,-1.111e-02,1.762e+02,-4.572e+02,1.184e+02,-3.827e+02,2.174e-01,4.393e-01,2.163e+00,-1.353e+00,4.347e-03,8.785e-03,-1.631e-03,-6.158e-03
8.055e+04,3.896e-01,-6.025e+00,2.371e-01,-1.506e-01,-1.335e-03,-1.828e-03,-1.632e-03,3.476e-03,2.866e+02,6.625e+02,6.335e+02,8.680e+02,1.524e-01,-3.000e-01,-1.748e+00,-1.035e+00,3.048e-03,-5.999e-03,-1.809e-04,-1.882e-03
8.726e+04,9.763e-01,-2.006e+00,9.213e-01,-5.014e-02,1.377e-03,-6.103e-02,-1.147e-01,-5.136e-02,5.232e+01,1.000e+02,5.874e+01,1.057e+02,1.249e+00,-1.221e+00,-1.230e+00,-3.698e+00,2.498e-02,-2.443e-02,2.179e-02,-2.376e-02
9.397e+04,7.685e-01,3.618e+00,8.753e-01,9.046e-02,-8.755e-03,1.595e-02,-5.464e-02,-2.283e-02,8.350e+01,-2.256e+02,6.457e+01,-2.000e+02,4.858e-01,8.208e-01,-2.597e+00,2.388e+00,9.715e-03,1.642e-02,7.019e-03,1.525e-02
1.007e+05,-5.979e-02,6.351e+00,1.411e-01,1.588e-01,2.496e-04,-2.303e-04,-4.960e-05,4.554e-04,1.737e+03,6.985e+02,1.108e+03,-1.004e+03,1.214e-01,-4.744e-02,2.940e-01,7.736e-01,2.427e-03,-9.487e-04,4.931e-04,2.515e-04
1.074e+05,-8.390e-01,4.054e+00,-7.023e-01,1.013e-01,-1.056e-02,-1.480e-02,-4.527e-02,2.833e-02,7.001e+01,2.331e+02,9.932e+01,2.743e+02,4.364e-01,-8.478e-01,3.070e+00,2.480e+00,8.728e-03,-1.696e-02,-4.411e-03,1.279e-02
1.141e+05,-9.491e-01,-1.424e+00,-1.000e+00,-3.561e-02,2.679e-02,7.117e-02,-7.972e-02,1.030e-01,5.543e+01,-7.296e+01,4.992e+01,-6.943e+01,1.603e+00,1.110e+00,5.877e-02,-3.337e+00,3.207e-02,2.219e-02,-3.128e-02,-2.334e-02
1.208e+05,-3.095e-01,-5.784e+00,-5.290e-01,-1.446e-01,-6.570e-04,1.489e-03,-4.180e-03,-3.041e-03,4.286e+02,-7.343e+02,1.663e+02,-5.012e+02,1.557e-01,2.390e-01,1.334e+00,-9.748e-01,3.115e-03,4.779e-03,-9.567e-04,-2.979e-03
1.275e+05,5.714e-01,-5.668e+00,3.443e-01,-1.417e-01,-3.494e-03,-3.589e-03,-5.176e-03,9.279e-03,1.443e+02,4.602e+02,3.607e+02,6.747e+02,1.946e-01,-4.611e-01,-2.502e+00,-1.367e+00,3.892e-03,-9.221e-03,3.345e-05,-3.727e-03
1.342e+05,1.007e+00,-1.216e+00,9.561e-01,-3.039e-02,4.503e-02,-8.241e-02,-5.659e-02,-1.300e-01,4.923e+01,5.885e+01,5.465e+01,6.184e+01,1.864e+00,-1.105e+00,5.337e-01,-3.379e+00,3.728e-02,-2.211e-02,3.497e-02,-2.227e-02
1.409e+05,6.684e-01,4.149e+00,8.522e-01,1.037e-01,-6.110e-03,9.405e-03,-3.476e-02,-2.072e-02,1.093e+02,-2.934e+02,6.785e+01,-2.352e+02,3.573e-01,6.581e-01,-2.492e+00,1.922e+00,7.145e-03,1.316e-02,4.724e-03,1.196e-02
1.477e+05,-1.780e-01,6.391e+00,1.185e-01,1.598e-01,-5.967e-05,-6.639e-04,5.459e-04,6.484e-04,8.740e+02,1.011e+03,1.264e+03,-9.928e+02,1.232e-01,-1.347e-01,8.392e-01,8.112e-01,2.464e-03,-2.695e-03,7.224e-04,7.435e-05
1.544e+05,-8.886e-01,3.888e+00,-7.001e-01,9.720e-02,-1.215e-02,-1.799e-02,-5.348e-02,2.974e-02,6.257e+01,2.119e+02,1.001e+02,2.638e+02,4.887e-01,-9.201e-01,3.143e+00,2.718e+00,9.775e-03,-1.840e-02,-5.054e-03,1.383e-02
1.611e+05,-9.368e-01,-1.458e+00,-1.011e+00,-3.646e-02,2.427e-02,6.876e-02,-8.202e-02,9.804e-02,5.688e+01,-7.562e+01,4.889e+01,-7.039e+01,1.559e+00,1.103e+00,1.482e-01,-3.306e+00,3.117e-02,2.206e-02,-3.070e-02,-2.343e-02
1.678e+05,-2.969e-01,-5.734e+00,-5.992e-01,-1.434e-01,-5.538e-04,1.434e-03,-4.632e-03,-2.850e-03,4.600e+02,-7.436e+02,1.317e+02,-4.470e+02,1.568e-01,2.286e-01,1.265e+00,-9.671e-01,3.136e-03,4.573e-03,-1.224e-03,-3.190e-03
1.745e+05,5.565e-01,-5.900e+00,2.331e-01,-1.475e-01,-3.174e-03,-3.127e-03,-2.205e-03,6.941e-03,1.508e+02,4.901e+02,6.573e+02,8.498e+02,1.790e-01,-4.367e-01,-2.477e+00,-1.299e+00,3.579e-03,-8.735e-03,-4.542e-04,-2.564e-03
1.812e+05,1.009e+00,-1.906e+00,9.008e-01,-4.766e-02,4.896e-03,-6.820e-02,-1.164e-01,-6.445e-02,4.897e+01,9.212e+01,6.145e+01,1.026e+02,1.353e+00,-1.260e+00,-1.035e+00,-3.851e+00,2.707e-02,-2.519e-02,2.318e-02,-2.398e-02
1.879e+05,7.489e-01,3.399e+00,9.496e-01,8.497e-02,-8.013e-03,1.713e-02,-5.975e-02,-1.914e-02,8.801e+01,-2.169e+02,5.501e+01,-1.740e+02,5.219e-01,8.204e-01,-2.398e+00,2.388e+00,1.044e-02,1.641e-02,8.518e-03,1.647e-02
1.946e+05,-3.081e-02,6.359e+00,3.581e-01,1.590e-01,2.726e-04,-1.430e-04,4.629e-05,7.655e-04,1.907e+03,4.820e+02,3.258e+02,-7.434e+02,1.205e-01,-2.968e-02,1.850e-01,7.670e-01,2.409e-03,-5.936e-04,9.570e-04,1.705e-04
2.014e+05,-7.866e-01,5.025e+00,-4.688e-01,1.256e-01,-7.906e-03,-8.058e-03,-1.770e-02,2.152e-02,7.880e+01,3.068e+02,2.123e+02,4.791e+02,2.908e-01,-6.927e-01,3.252e+00,2.006e+00,5.816e-03,-1.385e-02,-9.857e-04,7.225e-03
2.081e+05,-1.010e+00,3.673e-01,-9.864e-01,9.181e-03,1.160e-01,-4.292e-02,9.922e-02,-8.571e-02,4.897e+01,1.773e+01,5.139e+01,1.814e+01,2.447e+00,-4.384e-01,-2.312e+00,1.342e+00,4.895e-02,-8.768e-03,-4.820e-02,9.098e-03
2.148e+05,-5.653e-01,-4.510e+00,-8.696e-01,-1.127e-01,-3.858e-03,5.951e-03,-2.365e-02,-1.547e-02,1.505e+02,-3.689e+02,6.503e+01,-2.509e+02,2.844e-01,5.232e-01,2.199e+00,-1.578e+00,5.687e-03,1.046e-02,-3.766e-03,-9.740e-03
2.215e+05,2.448e-01,-6.482e+00,-2.063e-01,-1.621e-01,-3.708e-04,-9.029e-04,1.580e-03,5.131e-04,5.801e+02,9.400e+02,7.267e+02,-1.000e+03,1.230e-01,-1.835e-01,-1.159e+00,-8.423e-01,2.460e-03,-3.670e-03,-1.102e-03,3.582e-04
2.282e+05,8.951e-01,-4.381e+00,5.810e-01,-1.095e-01,-1.161e-02,-1.401e-02,-3.750e-02,3.014e-02,6.148e+01,2.372e+02,1.430e+02,3.501e+02,4.057e-01,-8.633e-01,-3.419e+00,-2.550e+00,8.114e-03,-1.727e-02,2.824e-03,-1.092e-02
2.349e+05,9.833e-01,4.008e-01,1.013e+00,1.002e-02,1.079e-01,4.378e-02,8.879e-02,8.828e-02,5.171e+01,-1.985e+01,4.873e+01,-1.930e+01,2.368e+00,4.622e-01,2.143e+00,1.404e+00,4.736e-02,9.245e-03,4.787e-02,9.838e-03
2.416e+05,4.698e-01,4.915e+00,8.429e-01,1.229e-01,-2.271e-03,3.709e-03,-1.511e-02,-1.031e-02,2.121e+02,-4.677e+02,6.891e+01,-2.815e+02,2.279e-01,4.068e-01,-1.893e+00,1.312e+00,4.559e-03,8.136e-03,2.843e-03,7.418e-03
2.483e+05,-3.219e-01,6.511e+00,1.861e-01,1.628e-01,-8.167e-04,-1.210e-03,2.317e-03,4.082e-04,3.843e+02,8.171e+02,8.179e+02,-1.034e+03,1.268e-01,-2.386e-01,1.513e+00,9.024e-01,2.536e-03,-4.771e-03,1.249e-03,-4.751e-04
2.550e+05,-9.205e-01,4.353e+00,-5.717e-01,1.088e-01,-1.235e-02,-1.497e-02,-3.940e-02,3.119e-02,5.820e+01,2.296e+02,1.476e+02,3.526e+02,4.199e-01,-8.910e-01,3.492e+00,2.648e+00,8.399e-03,-1.782e-02,-2.862e-03,1.110e-02
2.618e+05,-9.898e-01,-2.335e-01,-1.009e+00,-5.837e-03,1.178e-01,2.715e-02,1.109e-01,5.551e-02,5.104e+01,-1.149e+01,4.911e+01,-1.129e+01,2.443e+00,2.779e-01,-2.353e+00,-8.454e-01,4.885e-02,5.558e-03,-4.926e-02,-5.893e-03
2.685e+05,-5.076e-01,-4.660e+00,-9.006e-01,-1.165e-01,-2.840e-03,4.673e-03,-1.964e-02,-1.249e-02,1.844e+02,-4.167e+02,6.063e+01,-2.509e+02,2.563e-01,4.558e-01,1.994e+00,-1.426e+00,5.126e-03,9.115e-03,-3.555e-03,-8.806e-03
2.752e+05,2.463e-01,-6.570e+00,-3.217e-01,-1.643e-01,-3.911e-04,-8.833e-04,2.284e-03,2.125e-04,5.706e+02,9.534e+02,3.832e+02,-8.255e+02,1.199e-01,-1.842e-01,-1.181e+00,-8.331e-01,2.398e-03,-3.684e-03,-1.376e-03,7.913e-04
2.819e+05,8.643e-01,-5.061e+00,4.161e-01,-1.265e-01,-9.549e-03,-9.347e-03,-1.803e-02,2.378e-02,6.553e+01,2.832e+02,2.643e+02,5.278e+02,3.088e-01,-7.568e-01,-3.564e+00,-2.217e+00,6.175e-03,-1.514e-02,6.542e-04,-7.080e-03
2.886e+05,1.034e+00,-1.018e+00,9.419e-01,-2.545e-02,6.471e-02,-8.541e-02,-2.278e-02,-1.447e-01,4.672e+01,4.807e+01,5.632e+01,5.252e+01,2.073e+00,-1.030e+00,1.095e+00,-3.175e+00,4.146e-02,-2.060e-02,3.852e-02,-2.046e-02
2.953e+05,6.883e-01,3.485e+00,1.012e+00,8.713e-02,-6.420e-03,1.398e-02,-5.263e-02,-1.753e-02,1.039e+02,-2.400e+02,4.849e+01,-1.681e+02,4.733e-01,7.382e-01,-2.247e+00,2.158e+00,9.466e-03,1.476e-02,8.290e-03,1.576e-02
3.020e+05,1.421e-02,6.297e+00,6.117e-01,1.574e-01,2.970e-04,-3.960e-06,-2.766e-04,1.149e-03,2.001e+03,1.367e+01,1.253e+02,-4.825e+02,1.219e-01,-8.123e-04,6.847e-03,7.674e-01,2.437e-03,-1.625e-05,1.494e-03,3.738e-04
3.087e+05,-6.597e-01,6.202e+00,-5.814e-02,1.551e-01,-4.339e-03,-3.556e-03,2.360e-03,5.292e-03,1.089e+02,4.445e+02,1.823e+03,4.710e+02,1.783e-01,-4.987e-01,2.976e+00,1.435e+00,3.565e-03,-9.974e-03,1.339e-03,1.133e-03
3.154e+05,-1.029e+00,3.372e+00,-6.952e-01,8.431e-02,-1.656e-02,-3.168e-02,-8.416e-02,2.660e-02,4.687e+01,1.600e+02,1.019e+02,2.302e+02,6.925e-01,-1.144e+00,3.144e+00,3.513e+00,1.385e-02,-2.287e-02,-7.701e-03,1.707e-02
3.222e+05,-9.483e-01,-8.573e-01,-1.035e+00,-2.143e-02,6.736e-02,6.783e-02,3.311e-03,1.265e-01,5.557e+01,-4.394e+01,4.665e+01,-4.045e+01,2.018e+00,8.402e-01,-1.194e+00,-2.527e+00,4.037e-02,1.680e-02,-4.142e-02,-1.826e-02
3.289e+05,-4.724e-01,-4.683e+00,-9.562e-01,-1.171e-01,-2.290e-03,4.130e-03,-1.850e-02,-1.078e-02,2.111e+02,-4.433e+02,5.387e+01,-2.383e+02,2.466e-01,4.187e-01,1.844e+00,-1.353e+00,4.932e-03,8.374e-03,-3.735e-03,-8.585e-03
3.356e+05,1.865e-01,-6.619e+00,-5.113e-01,-1.655e-01,-1.439e-04,-6.583e-04,2.379e-03,3.014e-04,8.041e+02,1.061e+03,1.731e+02,-5.913e+02,1.151e-01,-1.430e-01,-9.250e-01,-7.886e-01,2.302e-03,-2.860e-03,-1.650e-03,1.081e-03
3.423e+05,7.645e-01,-6.040e+00,1.150e-01,-1.510e-01,-6.076e-03,-4.836e-03,1.090e-03,8.907e-03,8.233e+01,3.788e+02,1.388e+03,8.038e+02,2.055e-01,-5.882e-01,-3.396e+00,-1.691e+00,4.110e-03,-1.176e-02,-1.304e-03,-1.974e-03
3.490e+05,1.053e+00,-3.301e+00,6.910e-01,-8.252e-02,-1.718e-02,-3.445e-02,-8.939e-02,2.499e-02,4.482e+01,1.532e+02,1.032e+02,2.265e+02,7.300e-01,-1.180e+00,-3.126e+00,-3.652e+00,1.460e-02,-2.359e-02,8.142e-03,-1.751e-02
3.557e+05,9.678e-01,5.226e-01,1.026e+00,1.306e-02,9.654e-02,5.247e-02,6.642e-02,1.047e-01,5.337e+01,-2.628e+01,4.747e+01,-2.486e+01,2.272e+00,5.775e-01,1.897e+00,1.746e+00,4.543e-02,1.155e-02,4.647e-02,1.245e-02
3.624e+05,5.616e-01,4.108e+00,1.029e+00,1.027e-01,-3.762e-03,7.111e-03,-3.107e-02,-1.501e-02,1.534e+02,-3.377e+02,4.672e+01,-1.949e+02,3.272e-01,5.433e-01,-2.048e+00,1.649e+00,6.545e-03,1.087e-02,5.621e-03,1.186e-02
3.691e+05,-1.448e-02,6.358e+00,7.228e-01,1.589e-01,2.732e-04,-1.149e-04,2.490e-04,1.372e-03,1.963e+03,4.062e+02,9.129e+01,-4.197e+02,1.193e-01,-2.408e-02,1.514e-01,7.590e-01,2.387e-03,-4.816e-04,1.802e-03,3.125e-05
3.758e+05,-5.747e-01,6.708e+00,2.174e-01,1.677e-01,-2.959e-03,-2.352e-03,6.902e-03,-1.089e-03,1.395e+02,5.429e+02,6.634e+02,-1.031e+03,1.433e-01,-4.105e-01,2.671e+00,1.197e+00,2.866e-03,-8.209e-03,2.000e-03,-1.304e-03
3.826e+05,-9.608e-01,5.209e+00,-3.347e-01,1.302e-01,-1.144e-02,-1.056e-02,-1.565e-02,2.515e-02,5.319e+01,2.639e+02,3.877e+02,6.274e+02,3.213e-01,-8.217e-01,3.972e+00,2.463e+00,6.426e-03,-1.643e-02,-1.051e-05,6.337e-03
3.893e+05,-1.084e+00,2.405e+00,-7.895e-01,6.012e-02,-9.813e-03,-6.065e-02,-1.261e-01,-2.384e-02,4.246e+01,1.086e+02,7.976e+01,1.462e+02,1.136e+00,-1.335e+00,1.979e+00,4.178e+00,2.272e-02,-2.669e-02,-1.633e-02,2.244e-02
3.960e+05,-9.349e-01,-9.061e-01,-1.048e+00,-2.265e-02,6.173e-02,6.718e-02,-6.003e-03,1.243e-01,5.717e+01,-4.707e+01,4.553e+01,-4.226e+01,1.956e+00,8.589e-01,-1.050e+00,-2.575e+00,3.911e-02,1.718e-02,-4.058e-02,-1.888e-02
4.027e+05,-5.747e-01,-3.922e+00,-1.071e+00,-9.805e-02,-3.965e-03,8.089e-03,-3.534e-02,-1.501e-02,1.471e+02,-3.161e+02,4.324e+01,-1.792e+02,3.551e-01,5.695e-01,2.029e+00,-1.720e+00,7.102e-03,1.139e-02,-6.488e-03,-1.289e-02
4.094e+05,-1.023e-01,-6.034e+00,-8.783e-01,-1.508e-01,2.708e-04,3.257e-04,-1.953e-03,1.172e-03,1.505e+03,-7.296e+02,6.295e+01,-3.327e+02,1.318e-01,6.181e-02,3.595e-01,-8.013e-01,2.635e-03,1.236e-03,-2.128e-03,-1.483e-03
4.161e+05,3.752e-01,-6.925e+00,-5.301e-01,-1.731e-01,-1.154e-03,-1.239e-03,6.082e-03,-2.429e-03,2.929e+02,7.878e+02,1.608e+02,-6.007e+02,1.161e-01,-2.668e-01,-1.804e+00,-9.043e-01,2.323e-03,-5.336e-03,-2.155e-03,2.427e-03
4.228e+05,7.682e-01,-6.575e+00,-1.052e-01,-1.644e-01,-5.485e-03,-3.897e-03,8.575e-03,1.426e-03,8.102e+01,4.106e+02,1.313e+03,-1.074e+03,1.763e-01,-5.526e-01,-3.498e+00,-1.584e+00,3.526e-03,-1.105e-02,-2.188e-03,5.829e-04
4.295e+05,1.020e+00,-5.196e+00,3.188e-01,-1.299e-01,-1.287e-02,-1.190e-02,-1.678e-02,2.719e-02,4.730e+01,2.487e+02,4.219e+02,6.429e+02,3.411e-01,-8.718e-01,-4.182e+00,-2.661e+00,6.822e-03,-1.744e-02,-8.977e-05,-6.445e-03
4.362e+05,1.110e+00,-3.131e+00,6.804e-01,-7.828e-02,-1.836e-02,-4.196e-02,-1.024e-01,1.933e-02,4.042e+01,1.383e+02,1.066e+02,2.179e+02,8.282e-01,-1.267e+00,-3.047e+00,-3.999e+00,1.656e-02,-2.533e-02,9.287e-03,-1.853e-02
4.430e+05,1.047e+00,-7.637e-01,9.410e-01,-1.909e-02,9.082e-02,-7.865e-02,3.008e-02,-1.434e-01,4.558e+01,3.563e+01,5.645e+01,3.943e+01,2.297e+00,-8.562e-01,1.751e+00,-2.650e+00,4.593e-02,-1.712e-02,4.289e-02,-1.699e-02
4.497e+05,8.644e-01,1.568e+00,1.086e+00,3.919e-02,1.638e-02,5.629e-02,-8.336e-02,7.781e-02,6.678e+01,-8.765e+01,4.235e+01,-7.066e+01,1.369e+00,1.028e+00,-4.275e-01,3.035e+00,2.739e-02,2.055e-02,2.893e-02,2.339e-02
4.564e+05,6.022e-01,3.610e+00,1.120e+00,9.024e-02,-4.356e-03,1.024e-02,-4.347e-02,-1.428e-02,1.349e+02,-2.795e+02,3.962e+01,-1.580e+02,4.115e-01,6.222e-01,-1.998e+00,1.860e+00,8.231e-03,1.244e-02,8.093e-03,1.468e-02
4.631e+05,3.023e-01,5.213e+00,1.061e+00,1.303e-01,-4.534e-04,1.723e-03,-9.435e-03,-3.143e-03,4.614e+02,-6.633e+02,4.378e+01,-2.403e+02,1.823e-01,2.364e-01,-1.177e+00,1.022e+00,3.645e-03,4.728e-03,3.250e-03,5.490e-03
4.698e+05,3.485e-04,6.324e+00,9.337e-01,1.581e-01,2.799e-04,-8.104e-05,1.987e-04,1.734e-03,2.001e+03,2.909e+02,5.576e+01,-3.292e+02,1.195e-01,-1.695e-02,1.072e-01,7.557e-01,2.390e-03,-3.390e-04,2.285e-03,6.130e-05
4.765e+05,-2.778e-01,6.964e+00,7.648e-01,1.741e-01,-5.816e-04,-8.738e-04,5.440e-03,-1.824e-03,4.653e+02,9.620e+02,8.128e+01,-4.368e+02,1.082e-01,-2.019e-01,1.376e+00,8.094e-01,2.163e-03,-4.039e-03,2.358e-03,-2.712e-03
4.832e+05,-5.163e-01,7.206e+00,5.777e-01,1.802e-01,-2.173e-03,-1.669e-03,1.026e-02,-6.181e-03,1.672e+02,6.395e+02,1.365e+02,-5.811e+02,1.190e-01,-3.505e-01,2.464e+00,1.039e+00,2.381e-03,-7.010e-03,2.638e-03,-3.620e-03
4.899e+05,-7.088e-01,7.148e+00,3.915e-01,1.787e-01,-4.153e-03,-2.724e-03,1.374e-02,-6.861e-03,9.358e+01,4.807e+02,2.700e+02,-7.897e+02,1.426e-01,-4.775e-01,3.312e+00,1.358e+00,2.853e-03,-9.550e-03,2.823e-03,-3.229e-03
4.966e+05,-8.556e-01,6.894e+00,2.201e-01,1.724e-01,-6.341e-03,-4.127e-03,1.438e-02,-3.007e-03,6.564e+01,3.897e+02,6.396e+02,-1.065e+03,1.750e-01,-5.896e-01,3.915e+00,1.711e+00,3.499e-03,-1.179e-02,2.803e-03,-1.993e-03
5.034e+05,-9.618e-01,6.542e+00,7.269e-02,1.635e-01,-8.582e-03,-5.878e-03,1.165e-02,3.969e-03,5.253e+01,3.311e+02,1.561e+03,-9.878e+02,2.133e-01,-6.889e-01,4.302e+00,2.058e+00,4.266e-03,-1.378e-02,2.563e-03,-3.038e-04
5.101e+05,-1.035e+00,6.174e+00,-4.553e-02,1.543e-01,-1.070e-02,-7.871e-03,6.220e-03,1.185e-02,4.567e+01,2.915e+02,1.931e+03,2.344e+02,2.541e-01,-7.743e-01,4.517e+00,2.370e+00,5.083e-03,-1.549e-02,2.159e-03,1.490e-03
5.168e+05,-1.083e+00,5.856e+00,-1.318e-01,1.464e-01,-1.249e-02,-9.856e-03,-2.444e-04,1.866e-02,4.190e+01,2.648e+02,1.288e+03,7.903e+02,2.924e-01,-8.426e-01,4.618e+00,2.625e+00,5.848e-03,-1.685e-02,1.696e-03,3.077e-03
5.235e+05,-1.112e+00,5.637e+00,-1.848e-01,1.409e-01,-1.377e-02,-1.145e-02,-5.614e-03,2.325e-02,3.980e+01,2.484e+02,9.256e+02,8.193e+02,3.217e-01,-8.900e-01,4.659e+00,2.803e+00,6.434e-03,-1.780e-02,1.320e-03,4.196e-03
5.302e+05,-1.128e+00,5.551e+00,-2.036e-01,1.388e-01,-1.441e-02,-1.226e-02,-7.980e-03,2.517e-02,3.870e+01,2.412e+02,8.235e+02,8.018e+02,3.356e-01,-9.129e-01,4.689e+00,2.893e+00,6.713e-03,-1.826e-02,1.167e-03,4.649e-03
5.369e+05,-1.134e+00,5.614e+00,-1.870e-01,1.404e-01,-1.435e-02,-1.203e-02,-6.280e-03,2.428e-02,3.830e+01,2.428e+02,9.145e+02,8.146e+02,3.307e-01,-9.094e-01,4.730e+00,2.888e+00,6.614e-03,-1.819e-02,1.316e-03,4.330e-03
5.436e+05,-1.129e+00,5.830e+00,-1.332e-01,1.457e-01,-1.358e-02,-1.083e-02,-6.954e-04,2.035e-02,3.859e+01,2.532e+02,1.282e+03,7.850e+02,3.077e-01,-8.796e-01,4.780e+00,2.787e+00,6.155e-03,-1.759e-02,1.744e-03,3.241e-03
5.503e+05,-1.109e+00,6.182e+00,-4.014e-02,1.546e-01,-1.216e-02,-8.975e-03,7.314e-03,1.328e-02,3.988e+01,2.732e+02,1.961e+03,1.505e+02,2.717e-01,-8.258e-01,4.804e+00,2.596e+00,5.434e-03,-1.652e-02,2.334e-03,1.503e-03
5.571e+05,-1.067e+00,6.634e+00,9.392e-02,1.658e-01,-1.025e-02,-6.902e-03,1.538e-02,3.714e-03,4.288e+01,3.042e+02,1.376e+03,-1.101e+03,2.295e-01,-7.518e-01,4.742e+00,2.325e+00,4.591e-03,-1.504e-02,2.925e-03,-6.507e-04
5.638e+05,-9.920e-01,7.117e+00,2.685e-01,1.779e-01,-8.043e-03,-4.961e-03,2.093e-02,-6.348e-03,4.922e+01,3.499e+02,4.819e+02,-1.006e+03,1.875e-01,-6.613e-01,4.521e+00,1.991e+00,3.751e-03,-1.323e-02,3.361e-03,-2.884e-03
5.705e+05,-8.704e-01,7.528e+00,4.787e-01,1.882e-01,-5.740e-03,-3.343e-03,2.202e-02,-1.362e-02,6.305e+01,4.188e+02,1.890e+02,-7.119e+02,1.502e-01,-5.564e-01,4.058e+00,1.615e+00,3.004e-03,-1.113e-02,3.532e-03,-4.762e-03
5.772e+05,-6.879e-01,7.719e+00,7.118e-01,1.930e-01,-3.495e-03,-2.099e-03,1.817e-02,-1.458e-02,9.796e+01,5.336e+02,9.192e+01,-5.173e+02,1.206e-01,-4.351e-01,3.275e+00,1.230e+00,2.413e-03,-8.701e-03,3.397e-03,-5.728e-03
5.839e+05,-4.333e-01,7.507e+00,9.438e-01,1.877e-01,-1.452e-03,-1.186e-03,1.094e-02,-8.011e-03,2.243e+02,7.692e+02,5.400e+01,-3.870e+02,1.028e-01,-2.884e-01,2.120e+00,8.968e-01,2.056e-03,-5.767e-03,3.023e-03,-5.057e-03
5.906e+05,-1.043e-01,6.689e+00,1.137e+00,1.672e-01,6.296e-05,-3.991e-04,2.950e-03,9.714e-04,1.287e+03,1.143e+03,3.787e+01,-2.886e+02,1.080e-01,-9.234e-02,6.064e-01,7.324e-01,2.161e-03,-1.847e-03,2.765e-03,-1.738e-03
5.973e+05,2.842e-01,5.090e+00,1.239e+00,1.273e-01,-2.625e-04,1.620e-03,-1.020e-02,-2.144e-03,5.156e+02,-6.646e+02,3.221e+01,-2.020e+02,1.857e-01,2.182e-01,-1.058e+00,1.007e+00,3.713e-03,4.363e-03,4.047e-03,5.880e-03
